# Hz S RI R 50
6.000000e+08 0.000000e+00 0.000000e+00 9.966529e-01 0.000000e+00 0.000000e+00 0.000000e+00 0.000000e+00 0.000000e+00
6.139760e+08 0.000000e+00 0.000000e+00 9.964954e-01 0.000000e+00 0.000000e+00 0.000000e+00 0.000000e+00 0.000000e+00
6.282770e+08 0.000000e+00 0.000000e+00 9.963305e-01 0.000000e+00 0.000000e+00 0.000000e+00 0.000000e+00 0.000000e+00
6.429120e+08 0.000000e+00 0.000000e+00 9.961578e-01 0.000000e+00 0.000000e+00 0.000000e+00 0.000000e+00 0.000000e+00
6.578870e+08 0.000000e+00 0.000000e+00 9.959770e-01 0.000000e+00 0.000000e+00 0.000000e+00 0.000000e+00 0.000000e+00
6.732110e+08 0.000000e+00 0.000000e+00 9.957878e-01 0.000000e+00 0.000000e+00 0.000000e+00 0.000000e+00 0.000000e+00
6.888920e+08 0.000000e+00 0.000000e+00 9.955896e-01 0.000000e+00 0.000000e+00 0.000000e+00 0.000000e+00 0.000000e+00
7.049390e+08 0.000000e+00 0.000000e+00 9.953822e-01 0.000000e+00 0.000000e+00 0.000000e+00 0.000000e+00 0.000000e+00
7.213590e+08 0.000000e+00 0.000000e+00 9.951650e-01 0.000000e+00 0.000000e+00 0.000000e+00 0.000000e+00 0.000000e+00
7.381610e+08 0.000000e+00 0.000000e+00 9.949376e-01 0.000000e+00 0.000000e+00 0.000000e+00 0.000000e+00 0.000000e+00
7.553550e+08 0.000000e+00 0.000000e+00 9.946995e-01 0.000000e+00 0.000000e+00 0.000000e+00 0.000000e+00 0.000000e+00
7.729500e+08 0.000000e+00 0.000000e+00 9.944503e-01 0.000000e+00 0.000000e+00 0.000000e+00 0.000000e+00 0.000000e+00
7.909540e+08 0.000000e+00 0.000000e+00 9.941894e-01 0.000000e+00 0.000000e+00 0.000000e+00 0.000000e+00 0.000000e+00
8.093780e+08 0.000000e+00 0.000000e+00 9.939162e-01 0.000000e+00 0.000000e+00 0.000000e+00 0.000000e+00 0.000000e+00
8.282310e+08 0.000000e+00 0.000000e+00 9.936303e-01 0.000000e+00 0.000000e+00 0.000000e+00 0.000000e+00 0.000000e+00
8.475230e+08 0.000000e+00 0.000000e+00 9.933309e-01 0.000000e+00 0.000000e+00 0.000000e+00 0.000000e+00 0.000000e+00
8.672640e+08 0.000000e+00 0.000000e+00 9.930175e-01 0.000000e+00 0.000000e+00 0.000000e+00 0.000000e+00 0.000000e+00
8.874650e+08 0.000000e+00 0.000000e+00 9.926894e-01 0.000000e+00 0.000000e+00 0.000000e+00 0.000000e+00 0.000000e+00
9.081370e+08 0.000000e+00 0.000000e+00 9.923460e-01 0.000000e+00 0.000000e+00 0.000000e+00 0.000000e+00 0.000000e+00
9.292900e+08 0.000000e+00 0.000000e+00 9.919865e-01 0.000000e+00 0.000000e+00 0.000000e+00 0.000000e+00 0.000000e+00
9.509360e+08 0.000000e+00 0.000000e+00 9.916101e-01 0.000000e+00 0.000000e+00 0.000000e+00 0.000000e+00 0.000000e+00
9.730860e+08 0.000000e+00 0.000000e+00 9.912162e-01 0.000000e+00 0.000000e+00 0.000000e+00 0.000000e+00 0.000000e+00
9.957520e+08 0.000000e+00 0.000000e+00 9.908038e-01 0.000000e+00 0.000000e+00 0.000000e+00 0.000000e+00 0.000000e+00
1.018950e+09 0.000000e+00 0.000000e+00 9.903721e-01 0.000000e+00 0.000000e+00 0.000000e+00 0.000000e+00 0.000000e+00
1.042680e+09 0.000000e+00 0.000000e+00 9.899203e-01 0.000000e+00 0.000000e+00 0.000000e+00 0.000000e+00 0.000000e+00
1.066970e+09 0.000000e+00 0.000000e+00 9.894473e-01 0.000000e+00 0.000000e+00 0.000000e+00 0.000000e+00 0.000000e+00
1.091820e+09 0.000000e+00 0.000000e+00 9.889523e-01 0.000000e+00 0.000000e+00 0.000000e+00 0.000000e+00 0.000000e+00
1.117250e+09 0.000000e+00 0.000000e+00 9.884342e-01 0.000000e+00 0.000000e+00 0.000000e+00 0.000000e+00 0.000000e+00
1.143280e+09 0.000000e+00 0.000000e+00 9.878918e-01 0.000000e+00 0.000000e+00 0.000000e+00 0.000000e+00 0.000000e+00
1.169910e+09 0.000000e+00 0.000000e+00 9.873241e-01 0.000000e+00 0.000000e+00 0.000000e+00 0.000000e+00 0.000000e+00
1.197160e+09 0.000000e+00 0.000000e+00 9.867300e-01 0.000000e+00 0.000000e+00 0.000000e+00 0.000000e+00 0.000000e+00
1.225040e+09 0.000000e+00 0.000000e+00 9.861083e-01 0.000000e+00 0.000000e+00 0.000000e+00 0.000000e+00 0.000000e+00
1.253580e+09 0.000000e+00 0.000000e+00 9.854576e-01 0.000000e+00 0.000000e+00 0.000000e+00 0.000000e+00 0.000000e+00
1.282780e+09 0.000000e+00 0.000000e+00 9.847766e-01 0.000000e+00 0.000000e+00 0.000000e+00 0.000000e+00 0.000000e+00
1.312660e+09 0.000000e+00 0.000000e+00 9.840639e-01 0.000000e+00 0.000000e+00 0.000000e+00 0.000000e+00 0.000000e+00
1.343230e+09 0.000000e+00 0.000000e+00 9.833180e-01 0.000000e+00 0.000000e+00 0.000000e+00 0.000000e+00 0.000000e+00
1.374520e+09 0.000000e+00 0.000000e+00 9.825375e-01 0.000000e+00 0.000000e+00 0.000000e+00 0.000000e+00 0.000000e+00
1.406540e+09 0.000000e+00 0.000000e+00 9.817208e-01 0.000000e+00 0.000000e+00 0.000000e+00 0.000000e+00 0.000000e+00
1.439300e+09 0.000000e+00 0.000000e+00 9.808663e-01 0.000000e+00 0.000000e+00 0.000000e+00 0.000000e+00 0.000000e+00
1.472830e+09 0.000000e+00 0.000000e+00 9.799721e-01 0.000000e+00 0.000000e+00 0.000000e+00 0.000000e+00 0.000000e+00
1.507130e+09 0.000000e+00 0.000000e+00 9.790364e-01 0.000000e+00 0.000000e+00 0.000000e+00 0.000000e+00 0.000000e+00
1.542240e+09 0.000000e+00 0.000000e+00 9.780575e-01 0.000000e+00 0.000000e+00 0.000000e+00 0.000000e+00 0.000000e+00
1.578160e+09 0.000000e+00 0.000000e+00 9.770333e-01 0.000000e+00 0.000000e+00 0.000000e+00 0.000000e+00 0.000000e+00
1.614920e+09 0.000000e+00 0.000000e+00 9.759618e-01 0.000000e+00 0.000000e+00 0.000000e+00 0.000000e+00 0.000000e+00
1.652540e+09 0.000000e+00 0.000000e+00 9.748408e-01 0.000000e+00 0.000000e+00 0.000000e+00 0.000000e+00 0.000000e+00
1.691030e+09 0.000000e+00 0.000000e+00 9.736681e-01 0.000000e+00 0.000000e+00 0.000000e+00 0.000000e+00 0.000000e+00
1.730420e+09 0.000000e+00 0.000000e+00 9.724414e-01 0.000000e+00 0.000000e+00 0.000000e+00 0.000000e+00 0.000000e+00
1.770730e+09 0.000000e+00 0.000000e+00 9.711582e-01 0.000000e+00 0.000000e+00 0.000000e+00 0.000000e+00 0.000000e+00
1.811970e+09 0.000000e+00 0.000000e+00 9.698161e-01 0.000000e+00 0.000000e+00 0.000000e+00 0.000000e+00 0.000000e+00
1.854180e+09 0.000000e+00 0.000000e+00 9.684124e-01 0.000000e+00 0.000000e+00 0.000000e+00 0.000000e+00 0.000000e+00
1.897370e+09 0.000000e+00 0.000000e+00 9.669444e-01 0.000000e+00 0.000000e+00 0.000000e+00 0.000000e+00 0.000000e+00
1.941560e+09 0.000000e+00 0.000000e+00 9.654091e-01 0.000000e+00 0.000000e+00 0.000000e+00 0.000000e+00 0.000000e+00
1.986790e+09 0.000000e+00 0.000000e+00 9.638036e-01 0.000000e+00 0.000000e+00 0.000000e+00 0.000000e+00 0.000000e+00
2.033060e+09 0.000000e+00 0.000000e+00 9.621248e-01 0.000000e+00 0.000000e+00 0.000000e+00 0.000000e+00 0.000000e+00
2.080420e+09 0.000000e+00 0.000000e+00 9.603694e-01 0.000000e+00 0.000000e+00 0.000000e+00 0.000000e+00 0.000000e+00
2.128880e+09 0.000000e+00 0.000000e+00 9.585342e-01 0.000000e+00 0.000000e+00 0.000000e+00 0.000000e+00 0.000000e+00
2.178470e+09 0.000000e+00 0.000000e+00 9.566155e-01 0.000000e+00 0.000000e+00 0.000000e+00 0.000000e+00 0.000000e+00
2.229210e+09 0.000000e+00 0.000000e+00 9.546098e-01 0.000000e+00 0.000000e+00 0.000000e+00 0.000000e+00 0.000000e+00
2.281140e+09 0.000000e+00 0.000000e+00 9.525133e-01 0.000000e+00 0.000000e+00 0.000000e+00 0.000000e+00 0.000000e+00
2.334270e+09 0.000000e+00 0.000000e+00 9.503220e-01 0.000000e+00 0.000000e+00 0.000000e+00 0.000000e+00 0.000000e+00
2.388640e+09 0.000000e+00 0.000000e+00 9.480320e-01 0.000000e+00 0.000000e+00 0.000000e+00 0.000000e+00 0.000000e+00
2.444280e+09 0.000000e+00 0.000000e+00 9.456388e-01 0.000000e+00 0.000000e+00 0.000000e+00 0.000000e+00 0.000000e+00
2.501220e+09 0.000000e+00 0.000000e+00 9.431382e-01 0.000000e+00 0.000000e+00 0.000000e+00 0.000000e+00 0.000000e+00
2.559480e+09 0.000000e+00 0.000000e+00 9.405256e-01 0.000000e+00 0.000000e+00 0.000000e+00 0.000000e+00 0.000000e+00
2.619090e+09 0.000000e+00 0.000000e+00 9.377962e-01 0.000000e+00 0.000000e+00 0.000000e+00 0.000000e+00 0.000000e+00
2.680100e+09 0.000000e+00 0.000000e+00 9.349450e-01 0.000000e+00 0.000000e+00 0.000000e+00 0.000000e+00 0.000000e+00
2.742530e+09 0.000000e+00 0.000000e+00 9.319671e-01 0.000000e+00 0.000000e+00 0.000000e+00 0.000000e+00 0.000000e+00
2.806410e+09 0.000000e+00 0.000000e+00 9.288572e-01 0.000000e+00 0.000000e+00 0.000000e+00 0.000000e+00 0.000000e+00
2.871780e+09 0.000000e+00 0.000000e+00 9.256099e-01 0.000000e+00 0.000000e+00 0.000000e+00 0.000000e+00 0.000000e+00
2.938670e+09 0.000000e+00 0.000000e+00 9.222194e-01 0.000000e+00 0.000000e+00 0.000000e+00 0.000000e+00 0.000000e+00
3.007120e+09 0.000000e+00 0.000000e+00 9.186800e-01 0.000000e+00 0.000000e+00 0.000000e+00 0.000000e+00 0.000000e+00
3.077170e+09 0.000000e+00 0.000000e+00 9.149857e-01 0.000000e+00 0.000000e+00 0.000000e+00 0.000000e+00 0.000000e+00
3.148840e+09 0.000000e+00 0.000000e+00 9.111302e-01 0.000000e+00 0.000000e+00 0.000000e+00 0.000000e+00 0.000000e+00
3.222190e+09 0.000000e+00 0.000000e+00 9.071072e-01 0.000000e+00 0.000000e+00 0.000000e+00 0.000000e+00 0.000000e+00
3.297250e+09 0.000000e+00 0.000000e+00 9.029101e-01 0.000000e+00 0.000000e+00 0.000000e+00 0.000000e+00 0.000000e+00
3.374050e+09 0.000000e+00 0.000000e+00 8.985321e-01 0.000000e+00 0.000000e+00 0.000000e+00 0.000000e+00 0.000000e+00
3.452640e+09 0.000000e+00 0.000000e+00 8.939663e-01 0.000000e+00 0.000000e+00 0.000000e+00 0.000000e+00 0.000000e+00
3.533060e+09 0.000000e+00 0.000000e+00 8.892052e-01 0.000000e+00 0.000000e+00 0.000000e+00 0.000000e+00 0.000000e+00
3.615360e+09 0.000000e+00 0.000000e+00 8.842417e-01 0.000000e+00 0.000000e+00 0.000000e+00 0.000000e+00 0.000000e+00
3.699570e+09 0.000000e+00 0.000000e+00 8.790691e-01 0.000000e+00 0.000000e+00 0.000000e+00 0.000000e+00 0.000000e+00
3.785740e+09 0.000000e+00 0.000000e+00 8.736782e-01 0.000000e+00 0.000000e+00 0.000000e+00 0.000000e+00 0.000000e+00
3.873930e+09 0.000000e+00 0.000000e+00 8.680625e-01 0.000000e+00 0.000000e+00 0.000000e+00 0.000000e+00 0.000000e+00
3.964160e+09 0.000000e+00 0.000000e+00 8.622129e-01 0.000000e+00 0.000000e+00 0.000000e+00 0.000000e+00 0.000000e+00
4.056500e+09 0.000000e+00 0.000000e+00 8.561207e-01 0.000000e+00 0.000000e+00 0.000000e+00 0.000000e+00 0.000000e+00
4.150990e+09 0.000000e+00 0.000000e+00 8.497790e-01 0.000000e+00 0.000000e+00 0.000000e+00 0.000000e+00 0.000000e+00
4.247670e+09 0.000000e+00 0.000000e+00 8.431794e-01 0.000000e+00 0.000000e+00 0.000000e+00 0.000000e+00 0.000000e+00
4.346620e+09 0.000000e+00 0.000000e+00 8.363123e-01 0.000000e+00 0.000000e+00 0.000000e+00 0.000000e+00 0.000000e+00
4.447860e+09 0.000000e+00 0.000000e+00 8.291698e-01 0.000000e+00 0.000000e+00 0.000000e+00 0.000000e+00 0.000000e+00
4.551470e+09 0.000000e+00 0.000000e+00 8.217420e-01 0.000000e+00 0.000000e+00 0.000000e+00 0.000000e+00 0.000000e+00
4.657480e+09 0.000000e+00 0.000000e+00 8.140217e-01 0.000000e+00 0.000000e+00 0.000000e+00 0.000000e+00 0.000000e+00
4.765970e+09 0.000000e+00 0.000000e+00 8.059990e-01 0.000000e+00 0.000000e+00 0.000000e+00 0.000000e+00 0.000000e+00
4.876980e+09 0.000000e+00 0.000000e+00 7.976649e-01 0.000000e+00 0.000000e+00 0.000000e+00 0.000000e+00 0.000000e+00
4.990580e+09 0.000000e+00 0.000000e+00 7.890118e-01 0.000000e+00 0.000000e+00 0.000000e+00 0.000000e+00 0.000000e+00
5.106830e+09 0.000000e+00 0.000000e+00 7.800295e-01 0.000000e+00 0.000000e+00 0.000000e+00 0.000000e+00 0.000000e+00
5.225780e+09 0.000000e+00 0.000000e+00 7.707100e-01 0.000000e+00 0.000000e+00 0.000000e+00 0.000000e+00 0.000000e+00
5.347510e+09 0.000000e+00 0.000000e+00 7.610444e-01 0.000000e+00 0.000000e+00 0.000000e+00 0.000000e+00 0.000000e+00
5.472070e+09 0.000000e+00 0.000000e+00 7.510252e-01 0.000000e+00 0.000000e+00 0.000000e+00 0.000000e+00 0.000000e+00
5.599530e+09 0.000000e+00 0.000000e+00 7.406440e-01 0.000000e+00 0.000000e+00 0.000000e+00 0.000000e+00 0.000000e+00
5.729960e+09 0.000000e+00 0.000000e+00 7.298918e-01 0.000000e+00 0.000000e+00 0.000000e+00 0.000000e+00 0.000000e+00
5.863420e+09 0.000000e+00 0.000000e+00 7.187626e-01 0.000000e+00 0.000000e+00 0.000000e+00 0.000000e+00 0.000000e+00
6.000000e+09 0.000000e+00 0.000000e+00 7.072484e-01 0.000000e+00 0.000000e+00 0.000000e+00 0.000000e+00 0.000000e+00
6.139760e+09 0.000000e+00 0.000000e+00 6.953437e-01 0.000000e+00 0.000000e+00 0.000000e+00 0.000000e+00 0.000000e+00
6.282770e+09 0.000000e+00 0.000000e+00 6.830406e-01 0.000000e+00 0.000000e+00 0.000000e+00 0.000000e+00 0.000000e+00
6.429120e+09 0.000000e+00 0.000000e+00 6.703352e-01 0.000000e+00 0.000000e+00 0.000000e+00 0.000000e+00 0.000000e+00
6.578870e+09 0.000000e+00 0.000000e+00 6.572219e-01 0.000000e+00 0.000000e+00 0.000000e+00 0.000000e+00 0.000000e+00
6.732110e+09 0.000000e+00 0.000000e+00 6.436970e-01 0.000000e+00 0.000000e+00 0.000000e+00 0.000000e+00 0.000000e+00
6.888920e+09 0.000000e+00 0.000000e+00 6.297563e-01 0.000000e+00 0.000000e+00 0.000000e+00 0.000000e+00 0.000000e+00
7.049390e+09 0.000000e+00 0.000000e+00 6.153993e-01 0.000000e+00 0.000000e+00 0.000000e+00 0.000000e+00 0.000000e+00
7.213590e+09 0.000000e+00 0.000000e+00 6.006237e-01 0.000000e+00 0.000000e+00 0.000000e+00 0.000000e+00 0.000000e+00
7.381610e+09 0.000000e+00 0.000000e+00 5.854307e-01 0.000000e+00 0.000000e+00 0.000000e+00 0.000000e+00 0.000000e+00
7.553550e+09 0.000000e+00 0.000000e+00 5.698211e-01 0.000000e+00 0.000000e+00 0.000000e+00 0.000000e+00 0.000000e+00
7.729500e+09 0.000000e+00 0.000000e+00 5.537988e-01 0.000000e+00 0.000000e+00 0.000000e+00 0.000000e+00 0.000000e+00
7.909540e+09 0.000000e+00 0.000000e+00 5.373689e-01 0.000000e+00 0.000000e+00 0.000000e+00 0.000000e+00 0.000000e+00
8.093780e+09 0.000000e+00 0.000000e+00 5.205399e-01 0.000000e+00 0.000000e+00 0.000000e+00 0.000000e+00 0.000000e+00
8.282310e+09 0.000000e+00 0.000000e+00 5.033204e-01 0.000000e+00 0.000000e+00 0.000000e+00 0.000000e+00 0.000000e+00
8.475230e+09 0.000000e+00 0.000000e+00 4.857245e-01 0.000000e+00 0.000000e+00 0.000000e+00 0.000000e+00 0.000000e+00
8.672640e+09 0.000000e+00 0.000000e+00 4.677685e-01 0.000000e+00 0.000000e+00 0.000000e+00 0.000000e+00 0.000000e+00
8.874650e+09 0.000000e+00 0.000000e+00 4.494734e-01 0.000000e+00 0.000000e+00 0.000000e+00 0.000000e+00 0.000000e+00
9.081370e+09 0.000000e+00 0.000000e+00 4.308648e-01 0.000000e+00 0.000000e+00 0.000000e+00 0.000000e+00 0.000000e+00
9.292900e+09 0.000000e+00 0.000000e+00 4.119732e-01 0.000000e+00 0.000000e+00 0.000000e+00 0.000000e+00 0.000000e+00
9.509360e+09 0.000000e+00 0.000000e+00 3.928362e-01 0.000000e+00 0.000000e+00 0.000000e+00 0.000000e+00 0.000000e+00
9.730860e+09 0.000000e+00 0.000000e+00 3.734986e-01 0.000000e+00 0.000000e+00 0.000000e+00 0.000000e+00 0.000000e+00
9.957520e+09 0.000000e+00 0.000000e+00 3.540120e-01 0.000000e+00 0.000000e+00 0.000000e+00 0.000000e+00 0.000000e+00
1.018950e+10 0.000000e+00 0.000000e+00 3.344375e-01 0.000000e+00 0.000000e+00 0.000000e+00 0.000000e+00 0.000000e+00
1.042680e+10 0.000000e+00 0.000000e+00 3.148437e-01 0.000000e+00 0.000000e+00 0.000000e+00 0.000000e+00 0.000000e+00
1.066970e+10 0.000000e+00 0.000000e+00 2.953113e-01 0.000000e+00 0.000000e+00 0.000000e+00 0.000000e+00 0.000000e+00
1.091820e+10 0.000000e+00 0.000000e+00 2.759212e-01 0.000000e+00 0.000000e+00 0.000000e+00 0.000000e+00 0.000000e+00
1.117250e+10 0.000000e+00 0.000000e+00 2.567734e-01 0.000000e+00 0.000000e+00 0.000000e+00 0.000000e+00 0.000000e+00
1.143280e+10 0.000000e+00 0.000000e+00 2.379606e-01 0.000000e+00 0.000000e+00 0.000000e+00 0.000000e+00 0.000000e+00
1.169910e+10 0.000000e+00 0.000000e+00 2.195837e-01 0.000000e+00 0.000000e+00 0.000000e+00 0.000000e+00 0.000000e+00
1.197160e+10 0.000000e+00 0.000000e+00 2.017484e-01 0.000000e+00 0.000000e+00 0.000000e+00 0.000000e+00 0.000000e+00
1.225040e+10 0.000000e+00 0.000000e+00 1.845462e-01 0.000000e+00 0.000000e+00 0.000000e+00 0.000000e+00 0.000000e+00
1.253580e+10 0.000000e+00 0.000000e+00 1.680699e-01 0.000000e+00 0.000000e+00 0.000000e+00 0.000000e+00 0.000000e+00
1.282780e+10 0.000000e+00 0.000000e+00 1.523983e-01 0.000000e+00 0.000000e+00 0.000000e+00 0.000000e+00 0.000000e+00
1.312660e+10 0.000000e+00 0.000000e+00 1.375973e-01 0.000000e+00 0.000000e+00 0.000000e+00 0.000000e+00 0.000000e+00
1.343230e+10 0.000000e+00 0.000000e+00 1.237158e-01 0.000000e+00 0.000000e+00 0.000000e+00 0.000000e+00 0.000000e+00
1.374520e+10 0.000000e+00 0.000000e+00 1.107886e-01 0.000000e+00 0.000000e+00 0.000000e+00 0.000000e+00 0.000000e+00
1.406540e+10 0.000000e+00 0.000000e+00 9.883027e-02 0.000000e+00 0.000000e+00 0.000000e+00 0.000000e+00 0.000000e+00
1.439300e+10 0.000000e+00 0.000000e+00 8.784155e-02 0.000000e+00 0.000000e+00 0.000000e+00 0.000000e+00 0.000000e+00
1.472830e+10 0.000000e+00 0.000000e+00 7.780634e-02 0.000000e+00 0.000000e+00 0.000000e+00 0.000000e+00 0.000000e+00
1.507130e+10 0.000000e+00 0.000000e+00 6.869656e-02 0.000000e+00 0.000000e+00 0.000000e+00 0.000000e+00 0.000000e+00
1.542240e+10 0.000000e+00 0.000000e+00 6.047209e-02 0.000000e+00 0.000000e+00 0.000000e+00 0.000000e+00 0.000000e+00
1.578160e+10 0.000000e+00 0.000000e+00 5.308539e-02 0.000000e+00 0.000000e+00 0.000000e+00 0.000000e+00 0.000000e+00
1.614920e+10 0.000000e+00 0.000000e+00 4.648202e-02 0.000000e+00 0.000000e+00 0.000000e+00 0.000000e+00 0.000000e+00
1.652540e+10 0.000000e+00 0.000000e+00 4.060505e-02 0.000000e+00 0.000000e+00 0.000000e+00 0.000000e+00 0.000000e+00
1.691030e+10 0.000000e+00 0.000000e+00 3.539525e-02 0.000000e+00 0.000000e+00 0.000000e+00 0.000000e+00 0.000000e+00
1.730420e+10 0.000000e+00 0.000000e+00 3.079392e-02 0.000000e+00 0.000000e+00 0.000000e+00 0.000000e+00 0.000000e+00
1.770730e+10 0.000000e+00 0.000000e+00 2.674299e-02 0.000000e+00 0.000000e+00 0.000000e+00 0.000000e+00 0.000000e+00
1.811970e+10 0.000000e+00 0.000000e+00 2.318756e-02 0.000000e+00 0.000000e+00 0.000000e+00 0.000000e+00 0.000000e+00
1.854180e+10 0.000000e+00 0.000000e+00 2.007521e-02 0.000000e+00 0.000000e+00 0.000000e+00 0.000000e+00 0.000000e+00
1.897370e+10 0.000000e+00 0.000000e+00 1.735761e-02 0.000000e+00 0.000000e+00 0.000000e+00 0.000000e+00 0.000000e+00
1.941560e+10 0.000000e+00 0.000000e+00 1.498960e-02 0.000000e+00 0.000000e+00 0.000000e+00 0.000000e+00 0.000000e+00
1.986790e+10 0.000000e+00 0.000000e+00 1.293034e-02 0.000000e+00 0.000000e+00 0.000000e+00 0.000000e+00 0.000000e+00
2.033060e+10 0.000000e+00 0.000000e+00 1.114282e-02 0.000000e+00 0.000000e+00 0.000000e+00 0.000000e+00 0.000000e+00
2.080420e+10 0.000000e+00 0.000000e+00 9.593565e-03 0.000000e+00 0.000000e+00 0.000000e+00 0.000000e+00 0.000000e+00
2.128880e+10 0.000000e+00 0.000000e+00 8.252965e-03 0.000000e+00 0.000000e+00 0.000000e+00 0.000000e+00 0.000000e+00
2.178470e+10 0.000000e+00 0.000000e+00 7.094307e-03 0.000000e+00 0.000000e+00 0.000000e+00 0.000000e+00 0.000000e+00
2.229210e+10 0.000000e+00 0.000000e+00 6.094036e-03 0.000000e+00 0.000000e+00 0.000000e+00 0.000000e+00 0.000000e+00
2.281140e+10 0.000000e+00 0.000000e+00 5.231485e-03 0.000000e+00 0.000000e+00 0.000000e+00 0.000000e+00 0.000000e+00
2.334270e+10 0.000000e+00 0.000000e+00 4.488436e-03 0.000000e+00 0.000000e+00 0.000000e+00 0.000000e+00 0.000000e+00
2.388640e+10 0.000000e+00 0.000000e+00 3.848886e-03 0.000000e+00 0.000000e+00 0.000000e+00 0.000000e+00 0.000000e+00
2.444280e+10 0.000000e+00 0.000000e+00 3.298830e-03 0.000000e+00 0.000000e+00 0.000000e+00 0.000000e+00 0.000000e+00
2.501220e+10 0.000000e+00 0.000000e+00 2.826149e-03 0.000000e+00 0.000000e+00 0.000000e+00 0.000000e+00 0.000000e+00
2.559480e+10 0.000000e+00 0.000000e+00 2.420165e-03 0.000000e+00 0.000000e+00 0.000000e+00 0.000000e+00 0.000000e+00
2.619090e+10 0.000000e+00 0.000000e+00 2.071715e-03 0.000000e+00 0.000000e+00 0.000000e+00 0.000000e+00 0.000000e+00
2.680100e+10 0.000000e+00 0.000000e+00 1.772801e-03 0.000000e+00 0.000000e+00 0.000000e+00 0.000000e+00 0.000000e+00
2.742530e+10 0.000000e+00 0.000000e+00 1.516526e-03 0.000000e+00 0.000000e+00 0.000000e+00 0.000000e+00 0.000000e+00
2.806410e+10 0.000000e+00 0.000000e+00 1.296910e-03 0.000000e+00 0.000000e+00 0.000000e+00 0.000000e+00 0.000000e+00
2.871780e+10 0.000000e+00 0.000000e+00 1.108779e-03 0.000000e+00 0.000000e+00 0.000000e+00 0.000000e+00 0.000000e+00
2.938670e+10 0.000000e+00 0.000000e+00 9.476981e-04 0.000000e+00 0.000000e+00 0.000000e+00 0.000000e+00 0.000000e+00
